
T0F24 000:413 SEGGER J-Link V4.80g Log File (0001ms, 0261ms total)
T0F24 000:413 DLL Compiled: Feb 13 2014 20:50:02 (0001ms, 0261ms total)
T0F24 000:413 Logging started @ 2019-06-27 22:06 (0001ms, 0261ms total)
T0F24 000:414 JLINK_SetWarnOutHandler(...) (0000ms, 0261ms total)
T0F24 000:414 JLINK_OpenEx(...)
Firmware: J-Link ARM-OB STM32 compiled Aug 22 2012 19:52:04
Hardware: V7.00
Feature(s): RDI,FlashDL,FlashBP,JFlash,GDBFull  returns O.K. (0258ms, 0519ms total)
T0F24 000:672 JLINK_SetErrorOutHandler(...) (0000ms, 0519ms total)
T0F24 000:672 JLINK_ExecCommand("ProjectFile = "C:\Users\Vlad95\OneDrive\SistemaOperativoFull_rename\SRC\ARM\JLinkSettings.ini"", ...)  returns 0x00 (0000ms, 0519ms total)
T0F24 000:675 JLINK_ExecCommand("Device = LPC1768", ...)Device "LPC1768" selected (512 KB flash, 32 KB RAM).  returns 0x00 (0005ms, 0524ms total)
T0F24 000:680 JLINK_ExecCommand("DisableConnectionTimeout", ...)  returns 0x01 (0000ms, 0524ms total)
T0F24 000:680 JLINK_GetHardwareVersion()  returns 0x11170 (0000ms, 0524ms total)
T0F24 000:680 JLINK_GetDLLVersion()  returns 48007 (0000ms, 0524ms total)
T0F24 000:680 JLINK_GetFirmwareString(...) (0000ms, 0524ms total)
T0F24 000:689 JLINK_GetDLLVersion()  returns 48007 (0000ms, 0524ms total)
T0F24 000:689 JLINK_GetCompileDateTime() (0000ms, 0524ms total)
T0F24 000:690 JLINK_GetFirmwareString(...) (0001ms, 0525ms total)
T0F24 000:693 JLINK_GetHardwareVersion()  returns 0x11170 (0000ms, 0525ms total)
T0F24 000:700 JLINK_TIF_Select(JLINKARM_TIF_SWD)  returns 0x00 (0001ms, 0526ms total)
T0F24 000:701 JLINK_SetSpeed(500) (0000ms, 0526ms total)
T0F24 000:701 JLINK_GetId() >0x108 TIF>Found SWD-DP with ID 0x2BA01477 >0x0D TIF> >0x21 TIF> >0x0D TIF> >0x28 TIF> >0x0D TIF> >0x28 TIF> >0x0D TIF> >0x21 TIF> >0x0D TIF> >0x28 TIF> >0x0D TIF> >0x21 TIF> >0x0D TIF> >0x21 TIF> >0x0D TIF> >0x21 TIF> >0x0D TIF> >0x21 TIF> >0x0D TIF> >0x28 TIF> >0x0D TIF> >0x28 TIF> >0x0D TIF> >0x21 TIF> >0x0D TIF> >0x28 TIF> >0x0D TIF> >0x28 TIF> >0x0D TIF> >0x28 TIF> >0x0D TIF> >0x21 TIF> >0x0D TIF> >0x21 TIF> >0x0D TIF> >0x28 TIF> >0x0D TIF> >0x21 TIF> >0x0D TIF>
 >0x21 TIF>Found Cortex-M3 r2p0, Little endian. -- CPU_WriteMem(4 bytes @ 0xE0002000) -- CPU_ReadMem(4 bytes @ 0xE000EDF0) -- CPU_ReadMem(4 bytes @ 0xE0002000)FPUnit: 6 code (BP) slots and 2 literal slots -- CPU_ReadMem(4 bytes @ 0xE000EDFC) -- CPU_ReadMem(4 bytes @ 0xE0001000) -- CPU_WriteMem(4 bytes @ 0xE0001000) -- CPU_ReadMem(4 bytes @ 0xE00FF010)TPIU fitted. -- CPU_ReadMem(4 bytes @ 0xE00FF014)ETM fitted. -- CPU_ReadMem(4 bytes @ 0xE00FF018) >0x0D TIF> >0x21 TIF>  returns 0x2BA01477
 (0034ms, 0560ms total)
T0F24 000:735 JLINK_GetDeviceFamily()  returns 3 (0000ms, 0560ms total)
T0F24 000:737 JLINK_ReadMem (0xE00FFFF0, 0x0010 Bytes, ...) -- CPU is running -- CPU_ReadMem(16 bytes @ 0xE00FFFF0) -- Data:  0D 00 00 00 10 00 00 00 05 00 00 00 B1 00 00 00  returns 0x00 (0002ms, 0562ms total)
T0F24 000:739 JLINK_ReadMem (0xE00FFFD0, 0x0020 Bytes, ...) -- CPU is running -- CPU_ReadMem(32 bytes @ 0xE00FFFD0) -- Data:  00 00 00 00 00 00 00 00 00 00 00 00 00 00 00 00 ...  returns 0x00 (0002ms, 0564ms total)
T0F24 000:741 JLINK_ReadMem (0xE00FF000, 0x0018 Bytes, ...) -- CPU is running -- CPU_ReadMem(24 bytes @ 0xE00FF000) -- Data:  03 F0 F0 FF 03 20 F0 FF 03 30 F0 FF 03 10 F0 FF ...  returns 0x00 (0002ms, 0566ms total)
T0F24 000:743 JLINK_ReadMemU32(0xE000ED00, 0x0001 Items, ...) -- CPU is running -- CPU_ReadMem(4 bytes @ 0xE000ED00) -- Data:  30 C2 2F 41  returns 0x01 (0001ms, 0567ms total)
T0F24 000:744 JLINK_SetResetType(JLINKARM_RESET_TYPE_NORMAL)  returns ??? (0000ms, 0567ms total)
T0F24 000:744 JLINK_Reset() -- CPU is running -- CPU_WriteMem(4 bytes @ 0xE000EDF0) -- CPU is running -- CPU_WriteMem(4 bytes @ 0xE000EDFC) >0x35 TIF> -- CPU is running -- CPU_WriteMem(4 bytes @ 0xE000ED0C) -- CPU is running -- CPU_ReadMem(4 bytes @ 0xE000EDF0) -- CPU is running -- CPU_ReadMem(4 bytes @ 0xE000EDF0) -- CPU is running -- CPU_WriteMem(4 bytes @ 0xE000EDF0) -- CPU is running -- CPU_WriteMem(4 bytes @ 0xE000EDFC) -- CPU is running -- CPU_ReadMem(4 bytes @ 0xE000EDF0)
 -- CPU_WriteMem(4 bytes @ 0xE000EDFC) -- CPU_WriteMem(4 bytes @ 0xE000EDFC) -- CPU_WriteMem(4 bytes @ 0xE000EDFC) -- CPU_WriteMem(4 bytes @ 0xE000EDFC) -- CPU_WriteMem(4 bytes @ 0xE000EDFC) -- CPU_WriteMem(4 bytes @ 0xE0001050) -- CPU_WriteMem(4 bytes @ 0xE0001054) -- CPU_WriteMem(4 bytes @ 0xE0001058) -- CPU_WriteMem(4 bytes @ 0xE000EDFC) -- CPU_WriteMem(4 bytes @ 0xE0001058) -- CPU_ReadMem(4 bytes @ 0x00000004) -- CPU_ReadMem(4 bytes @ 0xE0002000) -- CPU_ReadMem(4 bytes @ 0xE0002008)
 -- CPU_ReadMem(4 bytes @ 0xE000200C) -- CPU_ReadMem(4 bytes @ 0xE0002010) -- CPU_ReadMem(4 bytes @ 0xE0002014) -- CPU_ReadMem(4 bytes @ 0xE0002018) -- CPU_ReadMem(4 bytes @ 0xE000201C) -- CPU_WriteMem(4 bytes @ 0xE0002000) -- CPU_WriteMem(4 bytes @ 0xE0002008) -- CPU_WriteMem(4 bytes @ 0xE000200C) -- CPU_WriteMem(4 bytes @ 0xE0002010) -- CPU_WriteMem(4 bytes @ 0xE0002014) -- CPU_WriteMem(4 bytes @ 0xE0002018) -- CPU_WriteMem(4 bytes @ 0xE000201C) -- CPU_ReadMem(4 bytes @ 0x400FC040)
 -- CPU_WriteMem(4 bytes @ 0xE0002000) -- CPU_WriteMem(4 bytes @ 0xE0002008) -- CPU_WriteMem(4 bytes @ 0xE000200C) -- CPU_WriteMem(4 bytes @ 0xE0002010) -- CPU_WriteMem(4 bytes @ 0xE0002014) -- CPU_WriteMem(4 bytes @ 0xE0002018) -- CPU_WriteMem(4 bytes @ 0xE000201C) -- CPU_WriteMem(4 bytes @ 0xE0002000) -- CPU_ReadMem(4 bytes @ 0xE000EDFC) -- CPU_ReadMem(4 bytes @ 0xE0001000) (0343ms, 0910ms total)
T0F24 001:087 JLINK_Halt()  returns 0x00 (0000ms, 0910ms total)
T0F24 001:087 JLINK_IsHalted()  returns TRUE (0000ms, 0910ms total)
T0F24 001:087 JLINK_ReadMemU32(0xE000EDF0, 0x0001 Items, ...) -- CPU_ReadMem(4 bytes @ 0xE000EDF0) -- Data:  03 00 03 00  returns 0x01 (0001ms, 0911ms total)
T0F24 001:088 JLINK_WriteU32(0xE000EDF0, 0xA05F0003) -- CPU_WriteMem(4 bytes @ 0xE000EDF0)  returns 0x00 (0001ms, 0912ms total)
T0F24 001:090 JLINK_WriteU32(0xE000EDFC, 0x01000000) -- CPU_WriteMem(4 bytes @ 0xE000EDFC)  returns 0x00 (0001ms, 0914ms total)
T0F24 001:105 JLINK_GetHWStatus(...)  returns 0x00 (0000ms, 0914ms total)
T0F24 001:116 JLINK_GetNumBPUnits(Type = 0xFFFFFF00)  returns 0x06 (0000ms, 0914ms total)
T0F24 001:116 JLINK_GetNumBPUnits(Type = 0xF0)  returns 0x2000 (0000ms, 0914ms total)
T0F24 001:116 JLINK_GetNumWPUnits()  returns 0x04 (0000ms, 0914ms total)
T0F24 001:129 JLINK_GetSpeed()  returns 0x1F4 (0000ms, 0914ms total)
T0F24 001:136 JLINK_ReadMemU32(0xE000E004, 0x0001 Items, ...) -- CPU_ReadMem(4 bytes @ 0xE000E004) -- Data:  01 00 00 00  returns 0x01 (0001ms, 0915ms total)
T0F24 001:137 JLINK_ReadMemU32(0xE000E004, 0x0001 Items, ...) -- CPU_ReadMem(4 bytes @ 0xE000E004) -- Data:  01 00 00 00  returns 0x01 (0001ms, 0916ms total)
T0F24 001:138 JLINK_WriteMem(0xE0001000, 0x001C Bytes, ...) -- Data:  01 00 00 00 00 00 00 00 00 00 00 00 00 00 00 00 ... -- CPU_WriteMem(28 bytes @ 0xE0001000)  returns 0x1C (0002ms, 0918ms total)
T0F24 001:140 JLINK_ReadMem (0xE0001000, 0x001C Bytes, ...) -- CPU_ReadMem(28 bytes @ 0xE0001000) -- Data:  01 00 00 40 00 00 00 00 00 00 00 00 00 00 00 00 ...  returns 0x00 (0002ms, 0920ms total)
T0F24 001:142 JLINK_Halt()  returns 0x00 (0000ms, 0920ms total)
T0F24 001:142 JLINK_IsHalted() -- CPU_ReadMem(4 bytes @ 0x400FC040)  returns TRUE (0002ms, 0922ms total)
T0F24 001:146 JLINK_WriteMem(0x10000000, 0x01E4 Bytes, ...) -- Data:  00 BE 0A E0 0D 78 2D 06 68 40 08 24 40 00 00 D3 ... -- CPU_WriteMem(484 bytes @ 0x10000000)  returns 0x1E4 (0023ms, 0943ms total)
T0F24 001:169 JLINK_WriteReg(R0, 0x00000000)  returns 0x00 (0000ms, 0943ms total)
T0F24 001:169 JLINK_WriteReg(R1, 0x00B71B00)  returns 0x00 (0000ms, 0943ms total)
T0F24 001:169 JLINK_WriteReg(R2, 0x00000001)  returns 0x00 (0000ms, 0943ms total)
T0F24 001:169 JLINK_WriteReg(R3, 0x00000000)  returns 0x00 (0000ms, 0943ms total)
T0F24 001:169 JLINK_WriteReg(R4, 0x00000000)  returns 0x00 (0000ms, 0943ms total)
T0F24 001:169 JLINK_WriteReg(R5, 0x00000000)  returns 0x00 (0000ms, 0943ms total)
T0F24 001:169 JLINK_WriteReg(R6, 0x00000000)  returns 0x00 (0000ms, 0943ms total)
T0F24 001:169 JLINK_WriteReg(R7, 0x00000000)  returns 0x00 (0000ms, 0943ms total)
T0F24 001:169 JLINK_WriteReg(R8, 0x00000000)  returns 0x00 (0000ms, 0943ms total)
T0F24 001:169 JLINK_WriteReg(R9, 0x100001DC)  returns 0x00 (0000ms, 0943ms total)
T0F24 001:169 JLINK_WriteReg(R10, 0x00000000)  returns 0x00 (0000ms, 0943ms total)
T0F24 001:169 JLINK_WriteReg(R11, 0x00000000)  returns 0x00 (0000ms, 0943ms total)
T0F24 001:169 JLINK_WriteReg(R12, 0x00000000)  returns 0x00 (0000ms, 0943ms total)
T0F24 001:169 JLINK_WriteReg(R13 (SP), 0x10000800)  returns 0x00 (0000ms, 0943ms total)
T0F24 001:169 JLINK_WriteReg(R14, 0x10000001)  returns 0x00 (0000ms, 0943ms total)
T0F24 001:169 JLINK_WriteReg(R15 (PC), 0x10000044)  returns 0x00 (0000ms, 0943ms total)
T0F24 001:169 JLINK_WriteReg(XPSR, 0x01000000)  returns 0x00 (0000ms, 0943ms total)
T0F24 001:169 JLINK_WriteReg(MSP, 0x10000800)  returns 0x00 (0000ms, 0943ms total)
T0F24 001:169 JLINK_WriteReg(PSP, 0x10000800)  returns 0x00 (0000ms, 0943ms total)
T0F24 001:169 JLINK_WriteReg(CFBP, 0x00000000)  returns 0x00 (0000ms, 0943ms total)
T0F24 001:169 JLINK_SetBPEx(Addr = 0x10000000, Type = 0xFFFFFFF2)  returns 0x00000001 (0000ms, 0943ms total)
T0F24 001:169 JLINK_Go() -- CPU_WriteMem(4 bytes @ 0xE0002000) -- CPU_WriteMem(4 bytes @ 0xE0002008) -- CPU_WriteMem(4 bytes @ 0xE000200C) -- CPU_WriteMem(4 bytes @ 0xE0002010) -- CPU_WriteMem(4 bytes @ 0xE0002014) -- CPU_WriteMem(4 bytes @ 0xE0002018) -- CPU_WriteMem(4 bytes @ 0xE000201C) -- CPU_WriteMem(4 bytes @ 0xE0001004) (0017ms, 0960ms total)
T0F24 001:186 JLINK_IsHalted()  returns TRUE (0011ms, 0971ms total)
T0F24 001:197 JLINK_ReadReg(R15 (PC))  returns 0x10000000 (0000ms, 0960ms total)
T0F24 001:197 JLINK_ClrBPEx(BPHandle = 0x00000001)  returns 0x00 (0000ms, 0960ms total)
T0F24 001:197 JLINK_ReadReg(R0)  returns 0x00000000 (0000ms, 0960ms total)
T0F24 001:198 JLINK_WriteReg(R0, 0x00000000)  returns 0x00 (0000ms, 0960ms total)
T0F24 001:198 JLINK_WriteReg(R1, 0x00B71B00)  returns 0x00 (0000ms, 0960ms total)
T0F24 001:198 JLINK_WriteReg(R2, 0x00000001)  returns 0x00 (0000ms, 0960ms total)
T0F24 001:198 JLINK_WriteReg(R3, 0x00000000)  returns 0x00 (0000ms, 0960ms total)
T0F24 001:198 JLINK_WriteReg(R4, 0x00000000)  returns 0x00 (0000ms, 0960ms total)
T0F24 001:198 JLINK_WriteReg(R5, 0x00000000)  returns 0x00 (0000ms, 0960ms total)
T0F24 001:198 JLINK_WriteReg(R6, 0x00000000)  returns 0x00 (0000ms, 0960ms total)
T0F24 001:198 JLINK_WriteReg(R7, 0x00000000)  returns 0x00 (0000ms, 0960ms total)
T0F24 001:198 JLINK_WriteReg(R8, 0x00000000)  returns 0x00 (0000ms, 0960ms total)
T0F24 001:198 JLINK_WriteReg(R9, 0x100001DC)  returns 0x00 (0000ms, 0960ms total)
T0F24 001:198 JLINK_WriteReg(R10, 0x00000000)  returns 0x00 (0000ms, 0960ms total)
T0F24 001:198 JLINK_WriteReg(R11, 0x00000000)  returns 0x00 (0000ms, 0960ms total)
T0F24 001:198 JLINK_WriteReg(R12, 0x00000000)  returns 0x00 (0000ms, 0960ms total)
T0F24 001:198 JLINK_WriteReg(R13 (SP), 0x10000800)  returns 0x00 (0000ms, 0960ms total)
T0F24 001:198 JLINK_WriteReg(R14, 0x10000001)  returns 0x00 (0000ms, 0960ms total)
T0F24 001:198 JLINK_WriteReg(R15 (PC), 0x100000D0)  returns 0x00 (0000ms, 0960ms total)
T0F24 001:198 JLINK_WriteReg(XPSR, 0x01000000)  returns 0x00 (0000ms, 0960ms total)
T0F24 001:198 JLINK_WriteReg(MSP, 0x10000800)  returns 0x00 (0000ms, 0960ms total)
T0F24 001:198 JLINK_WriteReg(PSP, 0x10000800)  returns 0x00 (0000ms, 0960ms total)
T0F24 001:198 JLINK_WriteReg(CFBP, 0x00000000)  returns 0x00 (0000ms, 0960ms total)
T0F24 001:198 JLINK_SetBPEx(Addr = 0x10000000, Type = 0xFFFFFFF2)  returns 0x00000002 (0000ms, 0960ms total)
T0F24 001:198 JLINK_Go() -- CPU_WriteMem(4 bytes @ 0xE0002000) (0006ms, 0966ms total)
T0F24 001:204 JLINK_IsHalted()  returns FALSE (0002ms, 0968ms total)
T0F24 001:237 JLINK_IsHalted()  returns FALSE (0001ms, 0967ms total)
T0F24 001:240 JLINK_IsHalted()  returns FALSE (0001ms, 0967ms total)
T0F24 001:243 JLINK_IsHalted()  returns FALSE (0001ms, 0967ms total)
T0F24 001:246 JLINK_IsHalted()  returns FALSE (0001ms, 0967ms total)
T0F24 001:249 JLINK_IsHalted()  returns FALSE (0001ms, 0967ms total)
T0F24 001:252 JLINK_IsHalted()  returns FALSE (0001ms, 0967ms total)
T0F24 001:256 JLINK_IsHalted()  returns FALSE (0001ms, 0967ms total)
T0F24 001:259 JLINK_IsHalted()  returns FALSE (0001ms, 0967ms total)
T0F24 001:262 JLINK_IsHalted()  returns FALSE (0001ms, 0967ms total)
T0F24 001:265 JLINK_IsHalted()  returns FALSE (0001ms, 0967ms total)
T0F24 001:268 JLINK_IsHalted()  returns FALSE (0001ms, 0967ms total)
T0F24 001:271 JLINK_IsHalted()  returns FALSE (0002ms, 0968ms total)
T0F24 001:275 JLINK_IsHalted()  returns FALSE (0001ms, 0967ms total)
T0F24 001:278 JLINK_IsHalted()  returns FALSE (0001ms, 0967ms total)
T0F24 001:281 JLINK_IsHalted()  returns FALSE (0001ms, 0967ms total)
T0F24 001:284 JLINK_IsHalted()  returns FALSE (0001ms, 0967ms total)
T0F24 001:287 JLINK_IsHalted()  returns FALSE (0001ms, 0967ms total)
T0F24 001:290 JLINK_IsHalted()  returns FALSE (0001ms, 0967ms total)
T0F24 001:293 JLINK_IsHalted()  returns FALSE (0001ms, 0967ms total)
T0F24 001:296 JLINK_IsHalted()  returns FALSE (0001ms, 0967ms total)
T0F24 001:299 JLINK_IsHalted()  returns FALSE (0001ms, 0967ms total)
T0F24 001:309 JLINK_IsHalted()  returns TRUE (0011ms, 0977ms total)
T0F24 001:320 JLINK_ReadReg(R15 (PC))  returns 0x10000000 (0000ms, 0966ms total)
T0F24 001:320 JLINK_ClrBPEx(BPHandle = 0x00000002)  returns 0x00 (0000ms, 0966ms total)
T0F24 001:320 JLINK_ReadReg(R0)  returns 0x00000000 (0000ms, 0966ms total)
T0F24 001:372 JLINK_WriteReg(R0, 0x00000001)  returns 0x00 (0000ms, 0966ms total)
T0F24 001:372 JLINK_WriteReg(R1, 0x00B71B00)  returns 0x00 (0000ms, 0966ms total)
T0F24 001:372 JLINK_WriteReg(R2, 0x00000001)  returns 0x00 (0000ms, 0966ms total)
T0F24 001:372 JLINK_WriteReg(R3, 0x00000000)  returns 0x00 (0000ms, 0966ms total)
T0F24 001:372 JLINK_WriteReg(R4, 0x00000000)  returns 0x00 (0000ms, 0966ms total)
T0F24 001:372 JLINK_WriteReg(R5, 0x00000000)  returns 0x00 (0000ms, 0966ms total)
T0F24 001:372 JLINK_WriteReg(R6, 0x00000000)  returns 0x00 (0000ms, 0966ms total)
T0F24 001:372 JLINK_WriteReg(R7, 0x00000000)  returns 0x00 (0000ms, 0966ms total)
T0F24 001:372 JLINK_WriteReg(R8, 0x00000000)  returns 0x00 (0000ms, 0966ms total)
T0F24 001:372 JLINK_WriteReg(R9, 0x100001DC)  returns 0x00 (0000ms, 0966ms total)
T0F24 001:372 JLINK_WriteReg(R10, 0x00000000)  returns 0x00 (0000ms, 0966ms total)
T0F24 001:372 JLINK_WriteReg(R11, 0x00000000)  returns 0x00 (0000ms, 0966ms total)
T0F24 001:372 JLINK_WriteReg(R12, 0x00000000)  returns 0x00 (0000ms, 0966ms total)
T0F24 001:372 JLINK_WriteReg(R13 (SP), 0x10000800)  returns 0x00 (0000ms, 0966ms total)
T0F24 001:372 JLINK_WriteReg(R14, 0x10000001)  returns 0x00 (0000ms, 0966ms total)
T0F24 001:372 JLINK_WriteReg(R15 (PC), 0x100000CC)  returns 0x00 (0000ms, 0966ms total)
T0F24 001:372 JLINK_WriteReg(XPSR, 0x01000000)  returns 0x00 (0000ms, 0966ms total)
T0F24 001:372 JLINK_WriteReg(MSP, 0x10000800)  returns 0x00 (0000ms, 0966ms total)
T0F24 001:372 JLINK_WriteReg(PSP, 0x10000800)  returns 0x00 (0000ms, 0966ms total)
T0F24 001:372 JLINK_WriteReg(CFBP, 0x00000000)  returns 0x00 (0000ms, 0966ms total)
T0F24 001:372 JLINK_SetBPEx(Addr = 0x10000000, Type = 0xFFFFFFF2)  returns 0x00000003 (0000ms, 0966ms total)
T0F24 001:372 JLINK_Go() -- CPU_WriteMem(4 bytes @ 0xE0002000) (0007ms, 0973ms total)
T0F24 001:379 JLINK_IsHalted()  returns TRUE (0012ms, 0985ms total)
T0F24 001:391 JLINK_ReadReg(R15 (PC))  returns 0x10000000 (0000ms, 0973ms total)
T0F24 001:391 JLINK_ClrBPEx(BPHandle = 0x00000003)  returns 0x00 (0000ms, 0973ms total)
T0F24 001:391 JLINK_ReadReg(R0)  returns 0x00000000 (0000ms, 0973ms total)
T0F24 001:396 JLINK_WriteMem(0x10000000, 0x01E4 Bytes, ...) -- Data:  00 BE 0A E0 0D 78 2D 06 68 40 08 24 40 00 00 D3 ... -- CPU_WriteMem(484 bytes @ 0x10000000)  returns 0x1E4 (0022ms, 0995ms total)
T0F24 001:418 JLINK_WriteReg(R0, 0x00000000)  returns 0x00 (0000ms, 0995ms total)
T0F24 001:418 JLINK_WriteReg(R1, 0x00B71B00)  returns 0x00 (0000ms, 0995ms total)
T0F24 001:418 JLINK_WriteReg(R2, 0x00000002)  returns 0x00 (0000ms, 0995ms total)
T0F24 001:418 JLINK_WriteReg(R3, 0x00000000)  returns 0x00 (0000ms, 0995ms total)
T0F24 001:418 JLINK_WriteReg(R4, 0x00000000)  returns 0x00 (0000ms, 0995ms total)
T0F24 001:418 JLINK_WriteReg(R5, 0x00000000)  returns 0x00 (0000ms, 0995ms total)
T0F24 001:418 JLINK_WriteReg(R6, 0x00000000)  returns 0x00 (0000ms, 0995ms total)
T0F24 001:418 JLINK_WriteReg(R7, 0x00000000)  returns 0x00 (0000ms, 0995ms total)
T0F24 001:418 JLINK_WriteReg(R8, 0x00000000)  returns 0x00 (0000ms, 0995ms total)
T0F24 001:418 JLINK_WriteReg(R9, 0x100001DC)  returns 0x00 (0000ms, 0995ms total)
T0F24 001:418 JLINK_WriteReg(R10, 0x00000000)  returns 0x00 (0000ms, 0995ms total)
T0F24 001:418 JLINK_WriteReg(R11, 0x00000000)  returns 0x00 (0000ms, 0995ms total)
T0F24 001:418 JLINK_WriteReg(R12, 0x00000000)  returns 0x00 (0000ms, 0995ms total)
T0F24 001:418 JLINK_WriteReg(R13 (SP), 0x10000800)  returns 0x00 (0000ms, 0995ms total)
T0F24 001:418 JLINK_WriteReg(R14, 0x10000001)  returns 0x00 (0000ms, 0995ms total)
T0F24 001:418 JLINK_WriteReg(R15 (PC), 0x10000044)  returns 0x00 (0000ms, 0995ms total)
T0F24 001:418 JLINK_WriteReg(XPSR, 0x01000000)  returns 0x00 (0000ms, 0995ms total)
T0F24 001:418 JLINK_WriteReg(MSP, 0x10000800)  returns 0x00 (0000ms, 0995ms total)
T0F24 001:418 JLINK_WriteReg(PSP, 0x10000800)  returns 0x00 (0000ms, 0995ms total)
T0F24 001:418 JLINK_WriteReg(CFBP, 0x00000000)  returns 0x00 (0000ms, 0995ms total)
T0F24 001:418 JLINK_SetBPEx(Addr = 0x10000000, Type = 0xFFFFFFF2)  returns 0x00000004 (0000ms, 0995ms total)
T0F24 001:418 JLINK_Go() -- CPU_WriteMem(4 bytes @ 0xE0002000) (0006ms, 1001ms total)
T0F24 001:424 JLINK_IsHalted()  returns TRUE (0011ms, 1012ms total)
T0F24 001:435 JLINK_ReadReg(R15 (PC))  returns 0x10000000 (0000ms, 1001ms total)
T0F24 001:435 JLINK_ClrBPEx(BPHandle = 0x00000004)  returns 0x00 (0000ms, 1001ms total)
T0F24 001:435 JLINK_ReadReg(R0)  returns 0x00000000 (0000ms, 1001ms total)
T0F24 001:435 JLINK_WriteMem(0x10000204, 0x0400 Bytes, ...) -- Data:  98 1F 00 10 21 02 00 00 29 02 00 00 2B 02 00 00 ... -- CPU_WriteMem(1024 bytes @ 0x10000204)  returns 0x400 (0047ms, 1048ms total)
T0F24 001:482 JLINK_WriteReg(R0, 0x00000000)  returns 0x00 (0000ms, 1048ms total)
T0F24 001:482 JLINK_WriteReg(R1, 0x00000400)  returns 0x00 (0000ms, 1048ms total)
T0F24 001:482 JLINK_WriteReg(R2, 0x10000204)  returns 0x00 (0000ms, 1048ms total)
T0F24 001:482 JLINK_WriteReg(R3, 0x00000000)  returns 0x00 (0000ms, 1048ms total)
T0F24 001:482 JLINK_WriteReg(R4, 0x00000000)  returns 0x00 (0000ms, 1048ms total)
T0F24 001:482 JLINK_WriteReg(R5, 0x00000000)  returns 0x00 (0000ms, 1048ms total)
T0F24 001:482 JLINK_WriteReg(R6, 0x00000000)  returns 0x00 (0000ms, 1048ms total)
T0F24 001:482 JLINK_WriteReg(R7, 0x00000000)  returns 0x00 (0000ms, 1048ms total)
T0F24 001:482 JLINK_WriteReg(R8, 0x00000000)  returns 0x00 (0000ms, 1048ms total)
T0F24 001:482 JLINK_WriteReg(R9, 0x100001DC)  returns 0x00 (0000ms, 1048ms total)
T0F24 001:482 JLINK_WriteReg(R10, 0x00000000)  returns 0x00 (0000ms, 1048ms total)
T0F24 001:482 JLINK_WriteReg(R11, 0x00000000)  returns 0x00 (0000ms, 1048ms total)
T0F24 001:482 JLINK_WriteReg(R12, 0x00000000)  returns 0x00 (0000ms, 1048ms total)
T0F24 001:482 JLINK_WriteReg(R13 (SP), 0x10000800)  returns 0x00 (0000ms, 1048ms total)
T0F24 001:482 JLINK_WriteReg(R14, 0x10000001)  returns 0x00 (0000ms, 1048ms total)
T0F24 001:482 JLINK_WriteReg(R15 (PC), 0x10000156)  returns 0x00 (0000ms, 1048ms total)
T0F24 001:482 JLINK_WriteReg(XPSR, 0x01000000)  returns 0x00 (0000ms, 1048ms total)
T0F24 001:482 JLINK_WriteReg(MSP, 0x10000800)  returns 0x00 (0000ms, 1048ms total)
T0F24 001:482 JLINK_WriteReg(PSP, 0x10000800)  returns 0x00 (0000ms, 1048ms total)
T0F24 001:482 JLINK_WriteReg(CFBP, 0x00000000)  returns 0x00 (0000ms, 1048ms total)
T0F24 001:482 JLINK_SetBPEx(Addr = 0x10000000, Type = 0xFFFFFFF2)  returns 0x00000005 (0000ms, 1048ms total)
T0F24 001:482 JLINK_Go() -- CPU_WriteMem(4 bytes @ 0xE0002000) (0007ms, 1055ms total)
T0F24 001:489 JLINK_IsHalted()  returns FALSE (0001ms, 1056ms total)
T0F24 001:502 JLINK_IsHalted()  returns TRUE (0012ms, 1067ms total)
T0F24 001:514 JLINK_ReadReg(R15 (PC))  returns 0x10000000 (0000ms, 1055ms total)
T0F24 001:514 JLINK_ClrBPEx(BPHandle = 0x00000005)  returns 0x00 (0000ms, 1055ms total)
T0F24 001:514 JLINK_ReadReg(R0)  returns 0x00000000 (0000ms, 1055ms total)
T0F24 001:514 JLINK_WriteMem(0x10000204, 0x0400 Bytes, ...) -- Data:  A1 FB 00 12 4F F4 00 40 00 E0 1B E0 4F F0 00 03 ... -- CPU_WriteMem(1024 bytes @ 0x10000204)  returns 0x400 (0046ms, 1101ms total)
T0F24 001:560 JLINK_WriteReg(R0, 0x00000400)  returns 0x00 (0000ms, 1101ms total)
T0F24 001:560 JLINK_WriteReg(R1, 0x00000400)  returns 0x00 (0000ms, 1101ms total)
T0F24 001:560 JLINK_WriteReg(R2, 0x10000204)  returns 0x00 (0000ms, 1101ms total)
T0F24 001:560 JLINK_WriteReg(R3, 0x00000000)  returns 0x00 (0000ms, 1101ms total)
T0F24 001:560 JLINK_WriteReg(R4, 0x00000000)  returns 0x00 (0000ms, 1101ms total)
T0F24 001:560 JLINK_WriteReg(R5, 0x00000000)  returns 0x00 (0000ms, 1101ms total)
T0F24 001:560 JLINK_WriteReg(R6, 0x00000000)  returns 0x00 (0000ms, 1101ms total)
T0F24 001:560 JLINK_WriteReg(R7, 0x00000000)  returns 0x00 (0000ms, 1101ms total)
T0F24 001:560 JLINK_WriteReg(R8, 0x00000000)  returns 0x00 (0000ms, 1101ms total)
T0F24 001:560 JLINK_WriteReg(R9, 0x100001DC)  returns 0x00 (0000ms, 1101ms total)
T0F24 001:560 JLINK_WriteReg(R10, 0x00000000)  returns 0x00 (0000ms, 1101ms total)
T0F24 001:560 JLINK_WriteReg(R11, 0x00000000)  returns 0x00 (0000ms, 1101ms total)
T0F24 001:560 JLINK_WriteReg(R12, 0x00000000)  returns 0x00 (0000ms, 1101ms total)
T0F24 001:560 JLINK_WriteReg(R13 (SP), 0x10000800)  returns 0x00 (0000ms, 1101ms total)
T0F24 001:560 JLINK_WriteReg(R14, 0x10000001)  returns 0x00 (0000ms, 1101ms total)
T0F24 001:560 JLINK_WriteReg(R15 (PC), 0x10000156)  returns 0x00 (0000ms, 1101ms total)
T0F24 001:560 JLINK_WriteReg(XPSR, 0x01000000)  returns 0x00 (0000ms, 1101ms total)
T0F24 001:560 JLINK_WriteReg(MSP, 0x10000800)  returns 0x00 (0000ms, 1101ms total)
T0F24 001:560 JLINK_WriteReg(PSP, 0x10000800)  returns 0x00 (0000ms, 1101ms total)
T0F24 001:560 JLINK_WriteReg(CFBP, 0x00000000)  returns 0x00 (0000ms, 1101ms total)
T0F24 001:560 JLINK_SetBPEx(Addr = 0x10000000, Type = 0xFFFFFFF2)  returns 0x00000006 (0000ms, 1101ms total)
T0F24 001:560 JLINK_Go() -- CPU_WriteMem(4 bytes @ 0xE0002000) (0008ms, 1109ms total)
T0F24 001:568 JLINK_IsHalted()  returns FALSE (0001ms, 1110ms total)
T0F24 001:578 JLINK_IsHalted()  returns TRUE (0011ms, 1120ms total)
T0F24 001:589 JLINK_ReadReg(R15 (PC))  returns 0x10000000 (0000ms, 1109ms total)
T0F24 001:589 JLINK_ClrBPEx(BPHandle = 0x00000006)  returns 0x00 (0000ms, 1109ms total)
T0F24 001:589 JLINK_ReadReg(R0)  returns 0x00000000 (0000ms, 1109ms total)
T0F24 001:590 JLINK_WriteMem(0x10000204, 0x0400 Bytes, ...) -- Data:  01 20 00 F0 0E FE 8D E8 07 00 00 BF FE E7 0E B5 ... -- CPU_WriteMem(1024 bytes @ 0x10000204)  returns 0x400 (0045ms, 1154ms total)
T0F24 001:635 JLINK_WriteReg(R0, 0x00000800)  returns 0x00 (0000ms, 1154ms total)
T0F24 001:635 JLINK_WriteReg(R1, 0x00000400)  returns 0x00 (0000ms, 1154ms total)
T0F24 001:635 JLINK_WriteReg(R2, 0x10000204)  returns 0x00 (0000ms, 1154ms total)
T0F24 001:635 JLINK_WriteReg(R3, 0x00000000)  returns 0x00 (0000ms, 1154ms total)
T0F24 001:635 JLINK_WriteReg(R4, 0x00000000)  returns 0x00 (0000ms, 1154ms total)
T0F24 001:635 JLINK_WriteReg(R5, 0x00000000)  returns 0x00 (0000ms, 1154ms total)
T0F24 001:635 JLINK_WriteReg(R6, 0x00000000)  returns 0x00 (0000ms, 1154ms total)
T0F24 001:635 JLINK_WriteReg(R7, 0x00000000)  returns 0x00 (0000ms, 1154ms total)
T0F24 001:635 JLINK_WriteReg(R8, 0x00000000)  returns 0x00 (0000ms, 1154ms total)
T0F24 001:635 JLINK_WriteReg(R9, 0x100001DC)  returns 0x00 (0000ms, 1154ms total)
T0F24 001:635 JLINK_WriteReg(R10, 0x00000000)  returns 0x00 (0000ms, 1154ms total)
T0F24 001:635 JLINK_WriteReg(R11, 0x00000000)  returns 0x00 (0000ms, 1154ms total)
T0F24 001:635 JLINK_WriteReg(R12, 0x00000000)  returns 0x00 (0000ms, 1154ms total)
T0F24 001:635 JLINK_WriteReg(R13 (SP), 0x10000800)  returns 0x00 (0000ms, 1154ms total)
T0F24 001:635 JLINK_WriteReg(R14, 0x10000001)  returns 0x00 (0000ms, 1154ms total)
T0F24 001:635 JLINK_WriteReg(R15 (PC), 0x10000156)  returns 0x00 (0000ms, 1154ms total)
T0F24 001:635 JLINK_WriteReg(XPSR, 0x01000000)  returns 0x00 (0000ms, 1154ms total)
T0F24 001:635 JLINK_WriteReg(MSP, 0x10000800)  returns 0x00 (0000ms, 1154ms total)
T0F24 001:635 JLINK_WriteReg(PSP, 0x10000800)  returns 0x00 (0000ms, 1154ms total)
T0F24 001:635 JLINK_WriteReg(CFBP, 0x00000000)  returns 0x00 (0000ms, 1154ms total)
T0F24 001:635 JLINK_SetBPEx(Addr = 0x10000000, Type = 0xFFFFFFF2)  returns 0x00000007 (0000ms, 1154ms total)
T0F24 001:635 JLINK_Go() -- CPU_WriteMem(4 bytes @ 0xE0002000) (0008ms, 1162ms total)
T0F24 001:643 JLINK_IsHalted()  returns FALSE (0001ms, 1163ms total)
T0F24 001:656 JLINK_IsHalted()  returns TRUE (0011ms, 1173ms total)
T0F24 001:667 JLINK_ReadReg(R15 (PC))  returns 0x10000000 (0000ms, 1162ms total)
T0F24 001:667 JLINK_ClrBPEx(BPHandle = 0x00000007)  returns 0x00 (0000ms, 1162ms total)
T0F24 001:667 JLINK_ReadReg(R0)  returns 0x00000000 (0000ms, 1162ms total)
T0F24 001:667 JLINK_WriteMem(0x10000204, 0x0400 Bytes, ...) -- Data:  52 FF 05 46 A5 42 00 D2 2C 46 76 48 00 68 40 1C ... -- CPU_WriteMem(1024 bytes @ 0x10000204)  returns 0x400 (0047ms, 1209ms total)
T0F24 001:714 JLINK_WriteReg(R0, 0x00000C00)  returns 0x00 (0000ms, 1209ms total)
T0F24 001:714 JLINK_WriteReg(R1, 0x00000400)  returns 0x00 (0000ms, 1209ms total)
T0F24 001:714 JLINK_WriteReg(R2, 0x10000204)  returns 0x00 (0000ms, 1209ms total)
T0F24 001:715 JLINK_WriteReg(R3, 0x00000000)  returns 0x00 (0000ms, 1209ms total)
T0F24 001:715 JLINK_WriteReg(R4, 0x00000000)  returns 0x00 (0000ms, 1209ms total)
T0F24 001:715 JLINK_WriteReg(R5, 0x00000000)  returns 0x00 (0000ms, 1209ms total)
T0F24 001:715 JLINK_WriteReg(R6, 0x00000000)  returns 0x00 (0000ms, 1209ms total)
T0F24 001:715 JLINK_WriteReg(R7, 0x00000000)  returns 0x00 (0000ms, 1209ms total)
T0F24 001:715 JLINK_WriteReg(R8, 0x00000000)  returns 0x00 (0000ms, 1209ms total)
T0F24 001:715 JLINK_WriteReg(R9, 0x100001DC)  returns 0x00 (0000ms, 1209ms total)
T0F24 001:715 JLINK_WriteReg(R10, 0x00000000)  returns 0x00 (0000ms, 1209ms total)
T0F24 001:715 JLINK_WriteReg(R11, 0x00000000)  returns 0x00 (0000ms, 1209ms total)
T0F24 001:715 JLINK_WriteReg(R12, 0x00000000)  returns 0x00 (0000ms, 1209ms total)
T0F24 001:715 JLINK_WriteReg(R13 (SP), 0x10000800)  returns 0x00 (0000ms, 1209ms total)
T0F24 001:715 JLINK_WriteReg(R14, 0x10000001)  returns 0x00 (0000ms, 1209ms total)
T0F24 001:715 JLINK_WriteReg(R15 (PC), 0x10000156)  returns 0x00 (0000ms, 1209ms total)
T0F24 001:715 JLINK_WriteReg(XPSR, 0x01000000)  returns 0x00 (0000ms, 1209ms total)
T0F24 001:715 JLINK_WriteReg(MSP, 0x10000800)  returns 0x00 (0000ms, 1209ms total)
T0F24 001:715 JLINK_WriteReg(PSP, 0x10000800)  returns 0x00 (0000ms, 1209ms total)
T0F24 001:715 JLINK_WriteReg(CFBP, 0x00000000)  returns 0x00 (0000ms, 1209ms total)
T0F24 001:715 JLINK_SetBPEx(Addr = 0x10000000, Type = 0xFFFFFFF2)  returns 0x00000008 (0000ms, 1209ms total)
T0F24 001:715 JLINK_Go() -- CPU_WriteMem(4 bytes @ 0xE0002000) (0007ms, 1216ms total)
T0F24 001:722 JLINK_IsHalted()  returns FALSE (0001ms, 1217ms total)
T0F24 001:726 JLINK_IsHalted()  returns FALSE (0001ms, 1217ms total)
T0F24 001:729 JLINK_IsHalted()  returns TRUE (0011ms, 1227ms total)
T0F24 001:740 JLINK_ReadReg(R15 (PC))  returns 0x10000000 (0000ms, 1216ms total)
T0F24 001:740 JLINK_ClrBPEx(BPHandle = 0x00000008)  returns 0x00 (0000ms, 1216ms total)
T0F24 001:740 JLINK_ReadReg(R0)  returns 0x00000000 (0000ms, 1216ms total)
T0F24 001:741 JLINK_WriteMem(0x10000204, 0x0400 Bytes, ...) -- Data:  E4 E7 00 BF 29 46 20 46 FF F7 62 FF 00 20 DD E7 ... -- CPU_WriteMem(1024 bytes @ 0x10000204)  returns 0x400 (0046ms, 1262ms total)
T0F24 001:787 JLINK_WriteReg(R0, 0x00001000)  returns 0x00 (0000ms, 1262ms total)
T0F24 001:787 JLINK_WriteReg(R1, 0x00000400)  returns 0x00 (0000ms, 1262ms total)
T0F24 001:787 JLINK_WriteReg(R2, 0x10000204)  returns 0x00 (0000ms, 1262ms total)
T0F24 001:787 JLINK_WriteReg(R3, 0x00000000)  returns 0x00 (0000ms, 1262ms total)
T0F24 001:787 JLINK_WriteReg(R4, 0x00000000)  returns 0x00 (0000ms, 1262ms total)
T0F24 001:787 JLINK_WriteReg(R5, 0x00000000)  returns 0x00 (0000ms, 1262ms total)
T0F24 001:787 JLINK_WriteReg(R6, 0x00000000)  returns 0x00 (0000ms, 1262ms total)
T0F24 001:787 JLINK_WriteReg(R7, 0x00000000)  returns 0x00 (0000ms, 1262ms total)
T0F24 001:787 JLINK_WriteReg(R8, 0x00000000)  returns 0x00 (0000ms, 1262ms total)
T0F24 001:787 JLINK_WriteReg(R9, 0x100001DC)  returns 0x00 (0000ms, 1262ms total)
T0F24 001:787 JLINK_WriteReg(R10, 0x00000000)  returns 0x00 (0000ms, 1262ms total)
T0F24 001:787 JLINK_WriteReg(R11, 0x00000000)  returns 0x00 (0000ms, 1262ms total)
T0F24 001:787 JLINK_WriteReg(R12, 0x00000000)  returns 0x00 (0000ms, 1262ms total)
T0F24 001:787 JLINK_WriteReg(R13 (SP), 0x10000800)  returns 0x00 (0000ms, 1262ms total)
T0F24 001:787 JLINK_WriteReg(R14, 0x10000001)  returns 0x00 (0000ms, 1262ms total)
T0F24 001:787 JLINK_WriteReg(R15 (PC), 0x10000156)  returns 0x00 (0000ms, 1262ms total)
T0F24 001:787 JLINK_WriteReg(XPSR, 0x01000000)  returns 0x00 (0000ms, 1262ms total)
T0F24 001:787 JLINK_WriteReg(MSP, 0x10000800)  returns 0x00 (0000ms, 1262ms total)
T0F24 001:787 JLINK_WriteReg(PSP, 0x10000800)  returns 0x00 (0000ms, 1262ms total)
T0F24 001:787 JLINK_WriteReg(CFBP, 0x00000000)  returns 0x00 (0000ms, 1262ms total)
T0F24 001:787 JLINK_SetBPEx(Addr = 0x10000000, Type = 0xFFFFFFF2)  returns 0x00000009 (0000ms, 1262ms total)
T0F24 001:787 JLINK_Go() -- CPU_WriteMem(4 bytes @ 0xE0002000) (0007ms, 1269ms total)
T0F24 001:794 JLINK_IsHalted()  returns FALSE (0002ms, 1271ms total)
T0F24 001:807 JLINK_IsHalted()  returns TRUE (0010ms, 1279ms total)
T0F24 001:817 JLINK_ReadReg(R15 (PC))  returns 0x10000000 (0000ms, 1269ms total)
T0F24 001:817 JLINK_ClrBPEx(BPHandle = 0x00000009)  returns 0x00 (0000ms, 1269ms total)
T0F24 001:817 JLINK_ReadReg(R0)  returns 0x00000000 (0000ms, 1269ms total)
T0F24 001:818 JLINK_WriteMem(0x10000204, 0x0400 Bytes, ...) -- Data:  F5 E7 70 B5 05 46 0C 46 00 F0 F7 FB 08 B1 82 20 ... -- CPU_WriteMem(1024 bytes @ 0x10000204)  returns 0x400 (0047ms, 1316ms total)
T0F24 001:865 JLINK_WriteReg(R0, 0x00001400)  returns 0x00 (0000ms, 1316ms total)
T0F24 001:865 JLINK_WriteReg(R1, 0x00000400)  returns 0x00 (0000ms, 1316ms total)
T0F24 001:865 JLINK_WriteReg(R2, 0x10000204)  returns 0x00 (0000ms, 1316ms total)
T0F24 001:865 JLINK_WriteReg(R3, 0x00000000)  returns 0x00 (0000ms, 1316ms total)
T0F24 001:865 JLINK_WriteReg(R4, 0x00000000)  returns 0x00 (0000ms, 1316ms total)
T0F24 001:865 JLINK_WriteReg(R5, 0x00000000)  returns 0x00 (0000ms, 1316ms total)
T0F24 001:865 JLINK_WriteReg(R6, 0x00000000)  returns 0x00 (0000ms, 1316ms total)
T0F24 001:865 JLINK_WriteReg(R7, 0x00000000)  returns 0x00 (0000ms, 1316ms total)
T0F24 001:865 JLINK_WriteReg(R8, 0x00000000)  returns 0x00 (0000ms, 1316ms total)
T0F24 001:865 JLINK_WriteReg(R9, 0x100001DC)  returns 0x00 (0000ms, 1316ms total)
T0F24 001:865 JLINK_WriteReg(R10, 0x00000000)  returns 0x00 (0000ms, 1316ms total)
T0F24 001:865 JLINK_WriteReg(R11, 0x00000000)  returns 0x00 (0000ms, 1316ms total)
T0F24 001:865 JLINK_WriteReg(R12, 0x00000000)  returns 0x00 (0000ms, 1316ms total)
T0F24 001:865 JLINK_WriteReg(R13 (SP), 0x10000800)  returns 0x00 (0000ms, 1316ms total)
T0F24 001:865 JLINK_WriteReg(R14, 0x10000001)  returns 0x00 (0000ms, 1316ms total)
T0F24 001:865 JLINK_WriteReg(R15 (PC), 0x10000156)  returns 0x00 (0000ms, 1316ms total)
T0F24 001:865 JLINK_WriteReg(XPSR, 0x01000000)  returns 0x00 (0000ms, 1316ms total)
T0F24 001:865 JLINK_WriteReg(MSP, 0x10000800)  returns 0x00 (0000ms, 1316ms total)
T0F24 001:865 JLINK_WriteReg(PSP, 0x10000800)  returns 0x00 (0000ms, 1316ms total)
T0F24 001:865 JLINK_WriteReg(CFBP, 0x00000000)  returns 0x00 (0000ms, 1316ms total)
T0F24 001:865 JLINK_SetBPEx(Addr = 0x10000000, Type = 0xFFFFFFF2)  returns 0x0000000A (0000ms, 1316ms total)
T0F24 001:865 JLINK_Go() -- CPU_WriteMem(4 bytes @ 0xE0002000) (0006ms, 1322ms total)
T0F24 001:871 JLINK_IsHalted()  returns FALSE (0003ms, 1325ms total)
T0F24 001:883 JLINK_IsHalted()  returns TRUE (0011ms, 1333ms total)
T0F24 001:894 JLINK_ReadReg(R15 (PC))  returns 0x10000000 (0000ms, 1322ms total)
T0F24 001:894 JLINK_ClrBPEx(BPHandle = 0x0000000A)  returns 0x00 (0000ms, 1322ms total)
T0F24 001:894 JLINK_ReadReg(R0)  returns 0x00000000 (0000ms, 1322ms total)
T0F24 001:894 JLINK_WriteMem(0x10000204, 0x0400 Bytes, ...) -- Data:  FC F9 08 B1 00 20 10 BD 00 F0 F4 F9 10 F0 01 0F ... -- CPU_WriteMem(1024 bytes @ 0x10000204)  returns 0x400 (0046ms, 1368ms total)
T0F24 001:940 JLINK_WriteReg(R0, 0x00001800)  returns 0x00 (0000ms, 1368ms total)
T0F24 001:940 JLINK_WriteReg(R1, 0x00000400)  returns 0x00 (0000ms, 1368ms total)
T0F24 001:940 JLINK_WriteReg(R2, 0x10000204)  returns 0x00 (0000ms, 1368ms total)
T0F24 001:940 JLINK_WriteReg(R3, 0x00000000)  returns 0x00 (0000ms, 1368ms total)
T0F24 001:940 JLINK_WriteReg(R4, 0x00000000)  returns 0x00 (0000ms, 1368ms total)
T0F24 001:940 JLINK_WriteReg(R5, 0x00000000)  returns 0x00 (0000ms, 1368ms total)
T0F24 001:940 JLINK_WriteReg(R6, 0x00000000)  returns 0x00 (0000ms, 1368ms total)
T0F24 001:940 JLINK_WriteReg(R7, 0x00000000)  returns 0x00 (0000ms, 1368ms total)
T0F24 001:940 JLINK_WriteReg(R8, 0x00000000)  returns 0x00 (0000ms, 1368ms total)
T0F24 001:940 JLINK_WriteReg(R9, 0x100001DC)  returns 0x00 (0000ms, 1368ms total)
T0F24 001:940 JLINK_WriteReg(R10, 0x00000000)  returns 0x00 (0000ms, 1368ms total)
T0F24 001:940 JLINK_WriteReg(R11, 0x00000000)  returns 0x00 (0000ms, 1368ms total)
T0F24 001:940 JLINK_WriteReg(R12, 0x00000000)  returns 0x00 (0000ms, 1368ms total)
T0F24 001:940 JLINK_WriteReg(R13 (SP), 0x10000800)  returns 0x00 (0000ms, 1368ms total)
T0F24 001:940 JLINK_WriteReg(R14, 0x10000001)  returns 0x00 (0000ms, 1368ms total)
T0F24 001:940 JLINK_WriteReg(R15 (PC), 0x10000156)  returns 0x00 (0000ms, 1368ms total)
T0F24 001:940 JLINK_WriteReg(XPSR, 0x01000000)  returns 0x00 (0000ms, 1368ms total)
T0F24 001:940 JLINK_WriteReg(MSP, 0x10000800)  returns 0x00 (0000ms, 1368ms total)
T0F24 001:940 JLINK_WriteReg(PSP, 0x10000800)  returns 0x00 (0000ms, 1368ms total)
T0F24 001:940 JLINK_WriteReg(CFBP, 0x00000000)  returns 0x00 (0000ms, 1368ms total)
T0F24 001:940 JLINK_SetBPEx(Addr = 0x10000000, Type = 0xFFFFFFF2)  returns 0x0000000B (0000ms, 1368ms total)
T0F24 001:940 JLINK_Go() -- CPU_WriteMem(4 bytes @ 0xE0002000) (0007ms, 1375ms total)
T0F24 001:947 JLINK_IsHalted()  returns FALSE (0003ms, 1378ms total)
T0F24 001:952 JLINK_IsHalted()  returns FALSE (0001ms, 1376ms total)
T0F24 001:955 JLINK_IsHalted()  returns TRUE (0012ms, 1387ms total)
T0F24 001:967 JLINK_ReadReg(R15 (PC))  returns 0x10000000 (0000ms, 1375ms total)
T0F24 001:967 JLINK_ClrBPEx(BPHandle = 0x0000000B)  returns 0x00 (0000ms, 1375ms total)
T0F24 001:967 JLINK_ReadReg(R0)  returns 0x00000000 (0000ms, 1375ms total)
T0F24 001:967 JLINK_WriteMem(0x10000204, 0x0400 Bytes, ...) -- Data:  2D E9 F0 41 04 46 0E 46 17 46 8F B1 58 48 00 68 ... -- CPU_WriteMem(1024 bytes @ 0x10000204)  returns 0x400 (0046ms, 1421ms total)
T0F24 002:013 JLINK_WriteReg(R0, 0x00001C00)  returns 0x00 (0000ms, 1421ms total)
T0F24 002:013 JLINK_WriteReg(R1, 0x00000400)  returns 0x00 (0000ms, 1421ms total)
T0F24 002:013 JLINK_WriteReg(R2, 0x10000204)  returns 0x00 (0000ms, 1421ms total)
T0F24 002:013 JLINK_WriteReg(R3, 0x00000000)  returns 0x00 (0000ms, 1421ms total)
T0F24 002:013 JLINK_WriteReg(R4, 0x00000000)  returns 0x00 (0000ms, 1421ms total)
T0F24 002:013 JLINK_WriteReg(R5, 0x00000000)  returns 0x00 (0000ms, 1421ms total)
T0F24 002:013 JLINK_WriteReg(R6, 0x00000000)  returns 0x00 (0000ms, 1421ms total)
T0F24 002:013 JLINK_WriteReg(R7, 0x00000000)  returns 0x00 (0000ms, 1421ms total)
T0F24 002:014 JLINK_WriteReg(R8, 0x00000000)  returns 0x00 (0000ms, 1421ms total)
T0F24 002:014 JLINK_WriteReg(R9, 0x100001DC)  returns 0x00 (0000ms, 1421ms total)
T0F24 002:014 JLINK_WriteReg(R10, 0x00000000)  returns 0x00 (0000ms, 1421ms total)
T0F24 002:014 JLINK_WriteReg(R11, 0x00000000)  returns 0x00 (0000ms, 1421ms total)
T0F24 002:014 JLINK_WriteReg(R12, 0x00000000)  returns 0x00 (0000ms, 1421ms total)
T0F24 002:014 JLINK_WriteReg(R13 (SP), 0x10000800)  returns 0x00 (0000ms, 1421ms total)
T0F24 002:014 JLINK_WriteReg(R14, 0x10000001)  returns 0x00 (0000ms, 1421ms total)
T0F24 002:014 JLINK_WriteReg(R15 (PC), 0x10000156)  returns 0x00 (0000ms, 1421ms total)
T0F24 002:014 JLINK_WriteReg(XPSR, 0x01000000)  returns 0x00 (0000ms, 1421ms total)
T0F24 002:014 JLINK_WriteReg(MSP, 0x10000800)  returns 0x00 (0000ms, 1421ms total)
T0F24 002:014 JLINK_WriteReg(PSP, 0x10000800)  returns 0x00 (0000ms, 1421ms total)
T0F24 002:014 JLINK_WriteReg(CFBP, 0x00000000)  returns 0x00 (0000ms, 1421ms total)
T0F24 002:014 JLINK_SetBPEx(Addr = 0x10000000, Type = 0xFFFFFFF2)  returns 0x0000000C (0000ms, 1421ms total)
T0F24 002:014 JLINK_Go() -- CPU_WriteMem(4 bytes @ 0xE0002000) (0007ms, 1428ms total)
T0F24 002:021 JLINK_IsHalted()  returns FALSE (0001ms, 1429ms total)
T0F24 002:032 JLINK_IsHalted()  returns TRUE (0011ms, 1439ms total)
T0F24 002:043 JLINK_ReadReg(R15 (PC))  returns 0x10000000 (0000ms, 1428ms total)
T0F24 002:043 JLINK_ClrBPEx(BPHandle = 0x0000000C)  returns 0x00 (0000ms, 1428ms total)
T0F24 002:043 JLINK_ReadReg(R0)  returns 0x00000000 (0000ms, 1428ms total)
T0F24 002:043 JLINK_WriteMem(0x10000204, 0x0400 Bytes, ...) -- Data:  1C 03 00 10 20 0E 00 10 0A 46 01 46 01 23 0B 70 ... -- CPU_WriteMem(1024 bytes @ 0x10000204)  returns 0x400 (0047ms, 1475ms total)
T0F24 002:090 JLINK_WriteReg(R0, 0x00002000)  returns 0x00 (0000ms, 1475ms total)
T0F24 002:090 JLINK_WriteReg(R1, 0x00000400)  returns 0x00 (0000ms, 1475ms total)
T0F24 002:090 JLINK_WriteReg(R2, 0x10000204)  returns 0x00 (0000ms, 1475ms total)
T0F24 002:090 JLINK_WriteReg(R3, 0x00000000)  returns 0x00 (0000ms, 1475ms total)
T0F24 002:090 JLINK_WriteReg(R4, 0x00000000)  returns 0x00 (0000ms, 1475ms total)
T0F24 002:090 JLINK_WriteReg(R5, 0x00000000)  returns 0x00 (0000ms, 1475ms total)
T0F24 002:090 JLINK_WriteReg(R6, 0x00000000)  returns 0x00 (0000ms, 1475ms total)
T0F24 002:090 JLINK_WriteReg(R7, 0x00000000)  returns 0x00 (0000ms, 1475ms total)
T0F24 002:090 JLINK_WriteReg(R8, 0x00000000)  returns 0x00 (0000ms, 1475ms total)
T0F24 002:090 JLINK_WriteReg(R9, 0x100001DC)  returns 0x00 (0000ms, 1475ms total)
T0F24 002:090 JLINK_WriteReg(R10, 0x00000000)  returns 0x00 (0000ms, 1475ms total)
T0F24 002:090 JLINK_WriteReg(R11, 0x00000000)  returns 0x00 (0000ms, 1475ms total)
T0F24 002:090 JLINK_WriteReg(R12, 0x00000000)  returns 0x00 (0000ms, 1475ms total)
T0F24 002:090 JLINK_WriteReg(R13 (SP), 0x10000800)  returns 0x00 (0000ms, 1475ms total)
T0F24 002:090 JLINK_WriteReg(R14, 0x10000001)  returns 0x00 (0000ms, 1475ms total)
T0F24 002:090 JLINK_WriteReg(R15 (PC), 0x10000156)  returns 0x00 (0000ms, 1475ms total)
T0F24 002:090 JLINK_WriteReg(XPSR, 0x01000000)  returns 0x00 (0000ms, 1475ms total)
T0F24 002:090 JLINK_WriteReg(MSP, 0x10000800)  returns 0x00 (0000ms, 1475ms total)
T0F24 002:090 JLINK_WriteReg(PSP, 0x10000800)  returns 0x00 (0000ms, 1475ms total)
T0F24 002:090 JLINK_WriteReg(CFBP, 0x00000000)  returns 0x00 (0000ms, 1475ms total)
T0F24 002:090 JLINK_SetBPEx(Addr = 0x10000000, Type = 0xFFFFFFF2)  returns 0x0000000D (0000ms, 1475ms total)
T0F24 002:090 JLINK_Go() -- CPU_WriteMem(4 bytes @ 0xE0002000) (0007ms, 1482ms total)
T0F24 002:097 JLINK_IsHalted()  returns FALSE (0002ms, 1484ms total)
T0F24 002:110 JLINK_IsHalted()  returns TRUE (0011ms, 1493ms total)
T0F24 002:121 JLINK_ReadReg(R15 (PC))  returns 0x10000000 (0000ms, 1482ms total)
T0F24 002:121 JLINK_ClrBPEx(BPHandle = 0x0000000D)  returns 0x00 (0000ms, 1482ms total)
T0F24 002:121 JLINK_ReadReg(R0)  returns 0x00000000 (0000ms, 1482ms total)
T0F24 002:121 JLINK_WriteMem(0x10000204, 0x0400 Bytes, ...) -- Data:  52 E8 00 0F 08 60 42 E8 00 10 00 28 F8 D1 00 BF ... -- CPU_WriteMem(1024 bytes @ 0x10000204)  returns 0x400 (0047ms, 1529ms total)
T0F24 002:168 JLINK_WriteReg(R0, 0x00002400)  returns 0x00 (0000ms, 1529ms total)
T0F24 002:168 JLINK_WriteReg(R1, 0x00000400)  returns 0x00 (0000ms, 1529ms total)
T0F24 002:168 JLINK_WriteReg(R2, 0x10000204)  returns 0x00 (0000ms, 1529ms total)
T0F24 002:168 JLINK_WriteReg(R3, 0x00000000)  returns 0x00 (0000ms, 1529ms total)
T0F24 002:168 JLINK_WriteReg(R4, 0x00000000)  returns 0x00 (0000ms, 1529ms total)
T0F24 002:168 JLINK_WriteReg(R5, 0x00000000)  returns 0x00 (0000ms, 1529ms total)
T0F24 002:168 JLINK_WriteReg(R6, 0x00000000)  returns 0x00 (0000ms, 1529ms total)
T0F24 002:168 JLINK_WriteReg(R7, 0x00000000)  returns 0x00 (0000ms, 1529ms total)
T0F24 002:168 JLINK_WriteReg(R8, 0x00000000)  returns 0x00 (0000ms, 1529ms total)
T0F24 002:168 JLINK_WriteReg(R9, 0x100001DC)  returns 0x00 (0000ms, 1529ms total)
T0F24 002:168 JLINK_WriteReg(R10, 0x00000000)  returns 0x00 (0000ms, 1529ms total)
T0F24 002:168 JLINK_WriteReg(R11, 0x00000000)  returns 0x00 (0000ms, 1529ms total)
T0F24 002:168 JLINK_WriteReg(R12, 0x00000000)  returns 0x00 (0000ms, 1529ms total)
T0F24 002:168 JLINK_WriteReg(R13 (SP), 0x10000800)  returns 0x00 (0000ms, 1529ms total)
T0F24 002:168 JLINK_WriteReg(R14, 0x10000001)  returns 0x00 (0000ms, 1529ms total)
T0F24 002:168 JLINK_WriteReg(R15 (PC), 0x10000156)  returns 0x00 (0000ms, 1529ms total)
T0F24 002:168 JLINK_WriteReg(XPSR, 0x01000000)  returns 0x00 (0000ms, 1529ms total)
T0F24 002:168 JLINK_WriteReg(MSP, 0x10000800)  returns 0x00 (0000ms, 1529ms total)
T0F24 002:168 JLINK_WriteReg(PSP, 0x10000800)  returns 0x00 (0000ms, 1529ms total)
T0F24 002:168 JLINK_WriteReg(CFBP, 0x00000000)  returns 0x00 (0000ms, 1529ms total)
T0F24 002:168 JLINK_SetBPEx(Addr = 0x10000000, Type = 0xFFFFFFF2)  returns 0x0000000E (0000ms, 1529ms total)
T0F24 002:168 JLINK_Go() -- CPU_WriteMem(4 bytes @ 0xE0002000) (0007ms, 1536ms total)
T0F24 002:175 JLINK_IsHalted()  returns FALSE (0002ms, 1538ms total)
T0F24 002:187 JLINK_IsHalted()  returns TRUE (0010ms, 1546ms total)
T0F24 002:197 JLINK_ReadReg(R15 (PC))  returns 0x10000000 (0000ms, 1536ms total)
T0F24 002:198 JLINK_ClrBPEx(BPHandle = 0x0000000E)  returns 0x00 (0000ms, 1537ms total)
T0F24 002:198 JLINK_ReadReg(R0)  returns 0x00000000 (0000ms, 1537ms total)
T0F24 002:198 JLINK_WriteMem(0x10000204, 0x0400 Bytes, ...) -- Data:  00 21 28 46 FF F7 BD FB 00 F0 E0 F8 70 BD 70 B5 ... -- CPU_WriteMem(1024 bytes @ 0x10000204)  returns 0x400 (0047ms, 1584ms total)
T0F24 002:245 JLINK_WriteReg(R0, 0x00002800)  returns 0x00 (0000ms, 1584ms total)
T0F24 002:245 JLINK_WriteReg(R1, 0x00000400)  returns 0x00 (0000ms, 1584ms total)
T0F24 002:245 JLINK_WriteReg(R2, 0x10000204)  returns 0x00 (0000ms, 1584ms total)
T0F24 002:245 JLINK_WriteReg(R3, 0x00000000)  returns 0x00 (0000ms, 1584ms total)
T0F24 002:245 JLINK_WriteReg(R4, 0x00000000)  returns 0x00 (0000ms, 1584ms total)
T0F24 002:245 JLINK_WriteReg(R5, 0x00000000)  returns 0x00 (0000ms, 1584ms total)
T0F24 002:245 JLINK_WriteReg(R6, 0x00000000)  returns 0x00 (0000ms, 1584ms total)
T0F24 002:245 JLINK_WriteReg(R7, 0x00000000)  returns 0x00 (0000ms, 1584ms total)
T0F24 002:245 JLINK_WriteReg(R8, 0x00000000)  returns 0x00 (0000ms, 1584ms total)
T0F24 002:245 JLINK_WriteReg(R9, 0x100001DC)  returns 0x00 (0000ms, 1584ms total)
T0F24 002:245 JLINK_WriteReg(R10, 0x00000000)  returns 0x00 (0000ms, 1584ms total)
T0F24 002:245 JLINK_WriteReg(R11, 0x00000000)  returns 0x00 (0000ms, 1584ms total)
T0F24 002:245 JLINK_WriteReg(R12, 0x00000000)  returns 0x00 (0000ms, 1584ms total)
T0F24 002:245 JLINK_WriteReg(R13 (SP), 0x10000800)  returns 0x00 (0000ms, 1584ms total)
T0F24 002:245 JLINK_WriteReg(R14, 0x10000001)  returns 0x00 (0000ms, 1584ms total)
T0F24 002:245 JLINK_WriteReg(R15 (PC), 0x10000156)  returns 0x00 (0000ms, 1584ms total)
T0F24 002:245 JLINK_WriteReg(XPSR, 0x01000000)  returns 0x00 (0000ms, 1584ms total)
T0F24 002:245 JLINK_WriteReg(MSP, 0x10000800)  returns 0x00 (0000ms, 1584ms total)
T0F24 002:245 JLINK_WriteReg(PSP, 0x10000800)  returns 0x00 (0000ms, 1584ms total)
T0F24 002:245 JLINK_WriteReg(CFBP, 0x00000000)  returns 0x00 (0000ms, 1584ms total)
T0F24 002:245 JLINK_SetBPEx(Addr = 0x10000000, Type = 0xFFFFFFF2)  returns 0x0000000F (0000ms, 1584ms total)
T0F24 002:245 JLINK_Go() -- CPU_WriteMem(4 bytes @ 0xE0002000) (0008ms, 1592ms total)
T0F24 002:253 JLINK_IsHalted()  returns FALSE (0001ms, 1593ms total)
T0F24 002:257 JLINK_IsHalted()  returns FALSE (0001ms, 1593ms total)
T0F24 002:260 JLINK_IsHalted()  returns TRUE (0011ms, 1603ms total)
T0F24 002:271 JLINK_ReadReg(R15 (PC))  returns 0x10000000 (0000ms, 1592ms total)
T0F24 002:271 JLINK_ClrBPEx(BPHandle = 0x0000000F)  returns 0x00 (0000ms, 1592ms total)
T0F24 002:271 JLINK_ReadReg(R0)  returns 0x00000000 (0000ms, 1592ms total)
T0F24 002:271 JLINK_WriteMem(0x10000204, 0x0400 Bytes, ...) -- Data:  FF F7 F1 FF 17 E0 A0 78 CE 49 09 68 89 78 88 42 ... -- CPU_WriteMem(1024 bytes @ 0x10000204)  returns 0x400 (0046ms, 1638ms total)
T0F24 002:317 JLINK_WriteReg(R0, 0x00002C00)  returns 0x00 (0000ms, 1638ms total)
T0F24 002:317 JLINK_WriteReg(R1, 0x00000400)  returns 0x00 (0000ms, 1638ms total)
T0F24 002:317 JLINK_WriteReg(R2, 0x10000204)  returns 0x00 (0000ms, 1638ms total)
T0F24 002:317 JLINK_WriteReg(R3, 0x00000000)  returns 0x00 (0000ms, 1638ms total)
T0F24 002:317 JLINK_WriteReg(R4, 0x00000000)  returns 0x00 (0000ms, 1638ms total)
T0F24 002:317 JLINK_WriteReg(R5, 0x00000000)  returns 0x00 (0000ms, 1638ms total)
T0F24 002:317 JLINK_WriteReg(R6, 0x00000000)  returns 0x00 (0000ms, 1638ms total)
T0F24 002:317 JLINK_WriteReg(R7, 0x00000000)  returns 0x00 (0000ms, 1638ms total)
T0F24 002:317 JLINK_WriteReg(R8, 0x00000000)  returns 0x00 (0000ms, 1638ms total)
T0F24 002:317 JLINK_WriteReg(R9, 0x100001DC)  returns 0x00 (0000ms, 1638ms total)
T0F24 002:317 JLINK_WriteReg(R10, 0x00000000)  returns 0x00 (0000ms, 1638ms total)
T0F24 002:317 JLINK_WriteReg(R11, 0x00000000)  returns 0x00 (0000ms, 1638ms total)
T0F24 002:317 JLINK_WriteReg(R12, 0x00000000)  returns 0x00 (0000ms, 1638ms total)
T0F24 002:317 JLINK_WriteReg(R13 (SP), 0x10000800)  returns 0x00 (0000ms, 1638ms total)
T0F24 002:317 JLINK_WriteReg(R14, 0x10000001)  returns 0x00 (0000ms, 1638ms total)
T0F24 002:317 JLINK_WriteReg(R15 (PC), 0x10000156)  returns 0x00 (0000ms, 1638ms total)
T0F24 002:317 JLINK_WriteReg(XPSR, 0x01000000)  returns 0x00 (0000ms, 1638ms total)
T0F24 002:317 JLINK_WriteReg(MSP, 0x10000800)  returns 0x00 (0000ms, 1638ms total)
T0F24 002:317 JLINK_WriteReg(PSP, 0x10000800)  returns 0x00 (0000ms, 1638ms total)
T0F24 002:317 JLINK_WriteReg(CFBP, 0x00000000)  returns 0x00 (0000ms, 1638ms total)
T0F24 002:317 JLINK_SetBPEx(Addr = 0x10000000, Type = 0xFFFFFFF2)  returns 0x00000010 (0000ms, 1638ms total)
T0F24 002:317 JLINK_Go() -- CPU_WriteMem(4 bytes @ 0xE0002000) (0008ms, 1646ms total)
T0F24 002:325 JLINK_IsHalted()  returns FALSE (0001ms, 1647ms total)
T0F24 002:344 JLINK_IsHalted()  returns TRUE (0012ms, 1658ms total)
T0F24 002:356 JLINK_ReadReg(R15 (PC))  returns 0x10000000 (0000ms, 1646ms total)
T0F24 002:356 JLINK_ClrBPEx(BPHandle = 0x00000010)  returns 0x00 (0000ms, 1646ms total)
T0F24 002:356 JLINK_ReadReg(R0)  returns 0x00000000 (0000ms, 1646ms total)
T0F24 002:356 JLINK_WriteMem(0x10000204, 0x0400 Bytes, ...) -- Data:  1B 68 4F F0 03 04 04 FA 01 F4 23 EA 04 03 43 4C ... -- CPU_WriteMem(1024 bytes @ 0x10000204)  returns 0x400 (0046ms, 1692ms total)
T0F24 002:402 JLINK_WriteReg(R0, 0x00003000)  returns 0x00 (0000ms, 1692ms total)
T0F24 002:402 JLINK_WriteReg(R1, 0x00000400)  returns 0x00 (0000ms, 1692ms total)
T0F24 002:402 JLINK_WriteReg(R2, 0x10000204)  returns 0x00 (0000ms, 1692ms total)
T0F24 002:402 JLINK_WriteReg(R3, 0x00000000)  returns 0x00 (0000ms, 1692ms total)
T0F24 002:402 JLINK_WriteReg(R4, 0x00000000)  returns 0x00 (0000ms, 1692ms total)
T0F24 002:402 JLINK_WriteReg(R5, 0x00000000)  returns 0x00 (0000ms, 1692ms total)
T0F24 002:402 JLINK_WriteReg(R6, 0x00000000)  returns 0x00 (0000ms, 1692ms total)
T0F24 002:402 JLINK_WriteReg(R7, 0x00000000)  returns 0x00 (0000ms, 1692ms total)
T0F24 002:402 JLINK_WriteReg(R8, 0x00000000)  returns 0x00 (0000ms, 1692ms total)
T0F24 002:402 JLINK_WriteReg(R9, 0x100001DC)  returns 0x00 (0000ms, 1692ms total)
T0F24 002:403 JLINK_WriteReg(R10, 0x00000000)  returns 0x00 (0000ms, 1693ms total)
T0F24 002:403 JLINK_WriteReg(R11, 0x00000000)  returns 0x00 (0000ms, 1693ms total)
T0F24 002:403 JLINK_WriteReg(R12, 0x00000000)  returns 0x00 (0000ms, 1693ms total)
T0F24 002:403 JLINK_WriteReg(R13 (SP), 0x10000800)  returns 0x00 (0000ms, 1693ms total)
T0F24 002:403 JLINK_WriteReg(R14, 0x10000001)  returns 0x00 (0000ms, 1693ms total)
T0F24 002:403 JLINK_WriteReg(R15 (PC), 0x10000156)  returns 0x00 (0000ms, 1693ms total)
T0F24 002:403 JLINK_WriteReg(XPSR, 0x01000000)  returns 0x00 (0000ms, 1693ms total)
T0F24 002:403 JLINK_WriteReg(MSP, 0x10000800)  returns 0x00 (0000ms, 1693ms total)
T0F24 002:403 JLINK_WriteReg(PSP, 0x10000800)  returns 0x00 (0000ms, 1693ms total)
T0F24 002:403 JLINK_WriteReg(CFBP, 0x00000000)  returns 0x00 (0000ms, 1693ms total)
T0F24 002:403 JLINK_SetBPEx(Addr = 0x10000000, Type = 0xFFFFFFF2)  returns 0x00000011 (0000ms, 1693ms total)
T0F24 002:403 JLINK_Go() -- CPU_WriteMem(4 bytes @ 0xE0002000) (0007ms, 1700ms total)
T0F24 002:410 JLINK_IsHalted()  returns FALSE (0001ms, 1701ms total)
T0F24 002:437 JLINK_IsHalted()  returns TRUE (0011ms, 1711ms total)
T0F24 002:448 JLINK_ReadReg(R15 (PC))  returns 0x10000000 (0000ms, 1700ms total)
T0F24 002:448 JLINK_ClrBPEx(BPHandle = 0x00000011)  returns 0x00 (0000ms, 1700ms total)
